<Qucs Dataset 25.2.0>
<indep time 207>
0.000000000000e+00
5.025130000000e-08
1.005026000000e-07
2.010052000000e-07
4.020104000000e-07
8.040208000000e-07
1.608041600000e-06
3.216083200000e-06
6.432166400000e-06
1.145729640000e-05
1.648242640000e-05
2.150755640000e-05
2.653268640000e-05
3.155781640000e-05
3.658294640000e-05
4.160807640000e-05
4.663320640000e-05
5.165833640000e-05
5.668346640000e-05
6.170859640000e-05
6.673372640000e-05
7.175885640000e-05
7.678398640000e-05
8.180911640000e-05
8.683424640000e-05
9.185937640000e-05
9.688450640000e-05
1.019096364000e-04
1.069347664000e-04
1.119598964000e-04
1.169850264000e-04
1.220101564000e-04
1.270352864000e-04
1.320604164000e-04
1.370855464000e-04
1.421106764000e-04
1.471358064000e-04
1.521609364000e-04
1.571860664000e-04
1.622111964000e-04
1.672363264000e-04
1.722614564000e-04
1.772865864000e-04
1.823117164000e-04
1.873368464000e-04
1.923619764000e-04
1.973871064000e-04
2.024122364000e-04
2.074373664000e-04
2.124624964000e-04
2.174876264000e-04
2.225127564000e-04
2.275378864000e-04
2.325630164000e-04
2.375881464000e-04
2.426132764000e-04
2.476384064000e-04
2.526635364000e-04
2.576886664000e-04
2.627137964000e-04
2.677389264000e-04
2.727640564000e-04
2.777891864000e-04
2.828143164000e-04
2.878394464000e-04
2.928645764000e-04
2.978897064000e-04
3.029148364000e-04
3.079399664000e-04
3.129650964000e-04
3.179902264000e-04
3.230153564000e-04
3.280404864000e-04
3.330656164000e-04
3.380907464000e-04
3.431158764000e-04
3.481410064000e-04
3.531661364000e-04
3.581912664000e-04
3.632163964000e-04
3.682415264000e-04
3.732666564000e-04
3.782917864000e-04
3.833169164000e-04
3.883420464000e-04
3.933671764000e-04
3.983923064000e-04
4.034174364000e-04
4.084425664000e-04
4.134676964000e-04
4.184928264000e-04
4.235179564000e-04
4.285430864000e-04
4.335682164000e-04
4.385933464000e-04
4.436184764000e-04
4.486436064000e-04
4.536687364000e-04
4.586938664000e-04
4.637189964000e-04
4.687441264000e-04
4.737692564000e-04
4.787943864000e-04
4.838195164000e-04
4.888446464000e-04
4.938697764000e-04
4.988949064000e-04
5.039200364000e-04
5.089451664000e-04
5.139702964000e-04
5.189954264000e-04
5.240205564000e-04
5.290456864000e-04
5.340708164000e-04
5.390959464000e-04
5.441210764000e-04
5.491462064000e-04
5.541713364000e-04
5.591964664000e-04
5.642215964000e-04
5.692467264000e-04
5.742718564000e-04
5.792969864000e-04
5.843221164000e-04
5.893472464000e-04
5.943723764000e-04
5.993975064000e-04
6.044226364000e-04
6.094477664000e-04
6.144728964000e-04
6.194980264000e-04
6.245231564000e-04
6.295482864000e-04
6.345734164000e-04
6.395985464000e-04
6.446236764000e-04
6.496488064000e-04
6.546739364000e-04
6.596990664000e-04
6.647241964000e-04
6.697493264000e-04
6.747744564000e-04
6.797995864000e-04
6.848247164000e-04
6.898498464000e-04
6.948749764000e-04
6.999001064000e-04
7.049252364000e-04
7.099503664000e-04
7.149754964000e-04
7.200006264000e-04
7.250257564000e-04
7.300508864000e-04
7.350760164000e-04
7.401011464000e-04
7.451262764000e-04
7.501514064000e-04
7.551765364000e-04
7.602016664000e-04
7.652267964000e-04
7.702519264000e-04
7.752770564000e-04
7.803021864000e-04
7.853273164000e-04
7.903524464000e-04
7.953775764000e-04
8.004027064000e-04
8.054278364000e-04
8.104529664000e-04
8.154780964000e-04
8.205032264000e-04
8.255283564000e-04
8.305534864000e-04
8.355786164000e-04
8.406037464000e-04
8.456288764000e-04
8.506540064000e-04
8.556791364000e-04
8.607042664000e-04
8.657293964000e-04
8.707545264000e-04
8.757796564000e-04
8.808047864000e-04
8.858299164000e-04
8.908550464000e-04
8.958801764000e-04
9.009053064000e-04
9.059304364000e-04
9.109555664000e-04
9.159806964000e-04
9.210058264000e-04
9.260309564000e-04
9.310560864000e-04
9.360812164000e-04
9.411063464000e-04
9.461314764000e-04
9.511566064000e-04
9.561817364000e-04
9.612068664000e-04
9.662319964000e-04
9.712571264000e-04
9.762822564000e-04
9.813073864000e-04
9.863325164000e-04
9.913576464000e-04
9.963827764000e-04
1.000000000000e-03
</indep>
<dep tran.i(pr1) time>
2.665981119217e-05
2.665981455059e-05
2.665981774283e-05
2.665982381143e-05
2.665983423201e-05
2.665984968625e-05
2.665986696606e-05
2.665987797277e-05
2.665987935488e-05
2.665987895627e-05
2.665987913294e-05
2.665987905257e-05
2.665987908648e-05
2.665987906959e-05
2.665987907530e-05
2.665987907096e-05
2.665987907111e-05
2.665987906927e-05
2.665987906833e-05
2.665987906699e-05
2.665987906584e-05
2.665987906462e-05
2.665987906344e-05
2.665987906225e-05
2.665987906108e-05
2.665987905991e-05
2.665987905875e-05
2.665987905759e-05
2.665987905644e-05
2.665987905529e-05
2.665987905416e-05
2.665987905303e-05
2.665987905190e-05
2.665987905078e-05
2.665987904967e-05
2.665987904857e-05
2.665987904747e-05
2.665987904638e-05
2.665987904529e-05
2.665987904421e-05
2.665987904313e-05
2.665987904207e-05
2.665987904100e-05
2.665987903995e-05
2.665987903890e-05
2.665987903785e-05
2.665987903682e-05
2.665987903578e-05
2.665987903476e-05
2.665987903374e-05
2.665987903272e-05
2.665987903172e-05
2.665987903071e-05
2.665987902971e-05
2.665987902872e-05
2.665987902774e-05
2.665987902676e-05
2.665987902578e-05
2.665987902481e-05
2.665987902385e-05
2.665987902289e-05
2.665987902194e-05
2.665987902099e-05
2.665987902005e-05
2.665987901911e-05
2.665987901818e-05
2.665987901725e-05
2.665987901633e-05
2.665987901542e-05
2.665987901451e-05
2.665987901360e-05
2.665987901270e-05
2.665987901181e-05
2.665987901092e-05
2.665987901003e-05
2.665987900916e-05
2.665987900828e-05
2.665987900741e-05
2.665987900655e-05
2.665987900569e-05
2.665987900483e-05
2.665987900398e-05
2.665987900314e-05
2.665987900230e-05
2.665987900146e-05
2.665987900063e-05
2.665987899980e-05
2.665987899898e-05
2.665987899817e-05
2.665987899735e-05
2.665987899655e-05
2.665987899574e-05
2.665987899495e-05
2.665987899415e-05
2.665987899336e-05
2.665987899258e-05
2.665987899180e-05
2.665987899102e-05
2.665987899025e-05
2.665987898948e-05
2.665987898872e-05
2.665987898796e-05
2.665987898721e-05
2.665987898646e-05
2.665987898571e-05
2.665987898497e-05
2.665987898424e-05
2.665987898350e-05
2.665987898277e-05
2.665987898205e-05
2.665987898133e-05
2.665987898061e-05
2.665987897990e-05
2.665987897919e-05
2.665987897849e-05
2.665987897779e-05
2.665987897709e-05
2.665987897640e-05
2.665987897571e-05
2.665987897503e-05
2.665987897435e-05
2.665987897367e-05
2.665987897300e-05
2.665987897233e-05
2.665987897167e-05
2.665987897101e-05
2.665987897035e-05
2.665987896969e-05
2.665987896904e-05
2.665987896840e-05
2.665987896776e-05
2.665987896712e-05
2.665987896648e-05
2.665987896585e-05
2.665987896522e-05
2.665987896460e-05
2.665987896398e-05
2.665987896336e-05
2.665987896275e-05
2.665987896214e-05
2.665987896153e-05
2.665987896093e-05
2.665987896033e-05
2.665987895973e-05
2.665987895914e-05
2.665987895855e-05
2.665987895796e-05
2.665987895738e-05
2.665987895680e-05
2.665987895622e-05
2.665987895565e-05
2.665987895508e-05
2.665987895451e-05
2.665987895395e-05
2.665987895339e-05
2.665987895283e-05
2.665987895228e-05
2.665987895172e-05
2.665987895118e-05
2.665987895063e-05
2.665987895009e-05
2.665987894955e-05
2.665987894902e-05
2.665987894849e-05
2.665987894796e-05
2.665987894743e-05
2.665987894691e-05
2.665987894639e-05
2.665987894587e-05
2.665987894536e-05
2.665987894484e-05
2.665987894434e-05
2.665987894383e-05
2.665987894333e-05
2.665987894283e-05
2.665987894233e-05
2.665987894184e-05
2.665987894134e-05
2.665987894086e-05
2.665987894037e-05
2.665987893989e-05
2.665987893941e-05
2.665987893893e-05
2.665987893846e-05
2.665987893798e-05
2.665987893751e-05
2.665987893705e-05
2.665987893658e-05
2.665987893612e-05
2.665987893566e-05
2.665987893521e-05
2.665987893475e-05
2.665987893430e-05
2.665987893385e-05
2.665987893341e-05
2.665987893296e-05
2.665987893252e-05
2.665987893209e-05
2.665987893165e-05
2.665987893122e-05
2.665987893079e-05
2.665987893036e-05
2.665987892993e-05
2.665987892951e-05
2.665987892909e-05
2.665987892867e-05
2.665987892837e-05
</dep>
<dep tran.v(v_adc) time>
3.920344965771e+00
3.920344246110e+00
3.920343562057e+00
3.920342261643e+00
3.920340028658e+00
3.920336717025e+00
3.920333014178e+00
3.920330655518e+00
3.920330359175e+00
3.920330444314e+00
3.920330406182e+00
3.920330423133e+00
3.920330415593e+00
3.920330418944e+00
3.920330417452e+00
3.920330418114e+00
3.920330417818e+00
3.920330417948e+00
3.920330417888e+00
3.920330417913e+00
3.920330417900e+00
3.920330417904e+00
3.920330417901e+00
3.920330417901e+00
3.920330417899e+00
3.920330417898e+00
3.920330417897e+00
3.920330417896e+00
3.920330417895e+00
3.920330417894e+00
3.920330417893e+00
3.920330417892e+00
3.920330417890e+00
3.920330417889e+00
3.920330417888e+00
3.920330417887e+00
3.920330417886e+00
3.920330417885e+00
3.920330417884e+00
3.920330417883e+00
3.920330417882e+00
3.920330417881e+00
3.920330417880e+00
3.920330417879e+00
3.920330417878e+00
3.920330417877e+00
3.920330417876e+00
3.920330417875e+00
3.920330417874e+00
3.920330417873e+00
3.920330417872e+00
3.920330417871e+00
3.920330417870e+00
3.920330417869e+00
3.920330417868e+00
3.920330417867e+00
3.920330417866e+00
3.920330417865e+00
3.920330417864e+00
3.920330417863e+00
3.920330417862e+00
3.920330417861e+00
3.920330417860e+00
3.920330417859e+00
3.920330417859e+00
3.920330417858e+00
3.920330417857e+00
3.920330417856e+00
3.920330417855e+00
3.920330417854e+00
3.920330417853e+00
3.920330417852e+00
3.920330417851e+00
3.920330417851e+00
3.920330417850e+00
3.920330417849e+00
3.920330417848e+00
3.920330417847e+00
3.920330417846e+00
3.920330417846e+00
3.920330417845e+00
3.920330417844e+00
3.920330417843e+00
3.920330417842e+00
3.920330417841e+00
3.920330417841e+00
3.920330417840e+00
3.920330417839e+00
3.920330417838e+00
3.920330417837e+00
3.920330417837e+00
3.920330417836e+00
3.920330417835e+00
3.920330417834e+00
3.920330417834e+00
3.920330417833e+00
3.920330417832e+00
3.920330417831e+00
3.920330417831e+00
3.920330417830e+00
3.920330417829e+00
3.920330417828e+00
3.920330417828e+00
3.920330417827e+00
3.920330417826e+00
3.920330417825e+00
3.920330417825e+00
3.920330417824e+00
3.920330417823e+00
3.920330417823e+00
3.920330417822e+00
3.920330417821e+00
3.920330417820e+00
3.920330417820e+00
3.920330417819e+00
3.920330417818e+00
3.920330417818e+00
3.920330417817e+00
3.920330417816e+00
3.920330417816e+00
3.920330417815e+00
3.920330417814e+00
3.920330417814e+00
3.920330417813e+00
3.920330417812e+00
3.920330417812e+00
3.920330417811e+00
3.920330417811e+00
3.920330417810e+00
3.920330417809e+00
3.920330417809e+00
3.920330417808e+00
3.920330417807e+00
3.920330417807e+00
3.920330417806e+00
3.920330417806e+00
3.920330417805e+00
3.920330417804e+00
3.920330417804e+00
3.920330417803e+00
3.920330417803e+00
3.920330417802e+00
3.920330417801e+00
3.920330417801e+00
3.920330417800e+00
3.920330417800e+00
3.920330417799e+00
3.920330417799e+00
3.920330417798e+00
3.920330417797e+00
3.920330417797e+00
3.920330417796e+00
3.920330417796e+00
3.920330417795e+00
3.920330417795e+00
3.920330417794e+00
3.920330417794e+00
3.920330417793e+00
3.920330417793e+00
3.920330417792e+00
3.920330417792e+00
3.920330417791e+00
3.920330417790e+00
3.920330417790e+00
3.920330417789e+00
3.920330417789e+00
3.920330417788e+00
3.920330417788e+00
3.920330417787e+00
3.920330417787e+00
3.920330417786e+00
3.920330417786e+00
3.920330417785e+00
3.920330417785e+00
3.920330417784e+00
3.920330417784e+00
3.920330417784e+00
3.920330417783e+00
3.920330417783e+00
3.920330417782e+00
3.920330417782e+00
3.920330417781e+00
3.920330417781e+00
3.920330417780e+00
3.920330417780e+00
3.920330417779e+00
3.920330417779e+00
3.920330417778e+00
3.920330417778e+00
3.920330417778e+00
3.920330417777e+00
3.920330417777e+00
3.920330417776e+00
3.920330417776e+00
3.920330417775e+00
3.920330417775e+00
3.920330417774e+00
3.920330417774e+00
3.920330417774e+00
3.920330417773e+00
3.920330417773e+00
3.920330417772e+00
3.920330417772e+00
3.920330417772e+00
3.920330417771e+00
3.920330417771e+00
3.920330417770e+00
</dep>
<dep tran.v(v_out) time>
3.371606577433e+01
3.371606577433e+01
3.371606577432e+01
3.371606577432e+01
3.371606577431e+01
3.371606577428e+01
3.371606577417e+01
3.371606577389e+01
3.371606577327e+01
3.371606577230e+01
3.371606577134e+01
3.371606577039e+01
3.371606576944e+01
3.371606576849e+01
3.371606576756e+01
3.371606576662e+01
3.371606576569e+01
3.371606576477e+01
3.371606576385e+01
3.371606576294e+01
3.371606576203e+01
3.371606576113e+01
3.371606576024e+01
3.371606575934e+01
3.371606575846e+01
3.371606575758e+01
3.371606575670e+01
3.371606575583e+01
3.371606575496e+01
3.371606575410e+01
3.371606575324e+01
3.371606575239e+01
3.371606575154e+01
3.371606575070e+01
3.371606574986e+01
3.371606574903e+01
3.371606574820e+01
3.371606574738e+01
3.371606574656e+01
3.371606574575e+01
3.371606574494e+01
3.371606574413e+01
3.371606574333e+01
3.371606574254e+01
3.371606574175e+01
3.371606574096e+01
3.371606574018e+01
3.371606573940e+01
3.371606573863e+01
3.371606573786e+01
3.371606573709e+01
3.371606573633e+01
3.371606573558e+01
3.371606573483e+01
3.371606573408e+01
3.371606573334e+01
3.371606573260e+01
3.371606573186e+01
3.371606573113e+01
3.371606573041e+01
3.371606572969e+01
3.371606572897e+01
3.371606572825e+01
3.371606572754e+01
3.371606572684e+01
3.371606572614e+01
3.371606572544e+01
3.371606572475e+01
3.371606572406e+01
3.371606572337e+01
3.371606572269e+01
3.371606572201e+01
3.371606572134e+01
3.371606572067e+01
3.371606572000e+01
3.371606571934e+01
3.371606571868e+01
3.371606571802e+01
3.371606571737e+01
3.371606571672e+01
3.371606571608e+01
3.371606571544e+01
3.371606571480e+01
3.371606571417e+01
3.371606571354e+01
3.371606571291e+01
3.371606571229e+01
3.371606571167e+01
3.371606571106e+01
3.371606571045e+01
3.371606570984e+01
3.371606570923e+01
3.371606570863e+01
3.371606570803e+01
3.371606570744e+01
3.371606570685e+01
3.371606570626e+01
3.371606570568e+01
3.371606570509e+01
3.371606570452e+01
3.371606570394e+01
3.371606570337e+01
3.371606570280e+01
3.371606570224e+01
3.371606570168e+01
3.371606570112e+01
3.371606570056e+01
3.371606570001e+01
3.371606569946e+01
3.371606569892e+01
3.371606569837e+01
3.371606569783e+01
3.371606569730e+01
3.371606569676e+01
3.371606569623e+01
3.371606569571e+01
3.371606569518e+01
3.371606569466e+01
3.371606569414e+01
3.371606569363e+01
3.371606569311e+01
3.371606569261e+01
3.371606569210e+01
3.371606569159e+01
3.371606569109e+01
3.371606569060e+01
3.371606569010e+01
3.371606568961e+01
3.371606568912e+01
3.371606568863e+01
3.371606568815e+01
3.371606568767e+01
3.371606568719e+01
3.371606568671e+01
3.371606568624e+01
3.371606568577e+01
3.371606568530e+01
3.371606568484e+01
3.371606568437e+01
3.371606568391e+01
3.371606568346e+01
3.371606568300e+01
3.371606568255e+01
3.371606568210e+01
3.371606568165e+01
3.371606568121e+01
3.371606568077e+01
3.371606568033e+01
3.371606567989e+01
3.371606567946e+01
3.371606567902e+01
3.371606567859e+01
3.371606567817e+01
3.371606567774e+01
3.371606567732e+01
3.371606567690e+01
3.371606567648e+01
3.371606567607e+01
3.371606567566e+01
3.371606567525e+01
3.371606567484e+01
3.371606567443e+01
3.371606567403e+01
3.371606567363e+01
3.371606567323e+01
3.371606567283e+01
3.371606567244e+01
3.371606567205e+01
3.371606567166e+01
3.371606567127e+01
3.371606567089e+01
3.371606567050e+01
3.371606567012e+01
3.371606566974e+01
3.371606566937e+01
3.371606566899e+01
3.371606566862e+01
3.371606566825e+01
3.371606566788e+01
3.371606566752e+01
3.371606566715e+01
3.371606566679e+01
3.371606566643e+01
3.371606566607e+01
3.371606566572e+01
3.371606566536e+01
3.371606566501e+01
3.371606566466e+01
3.371606566431e+01
3.371606566397e+01
3.371606566362e+01
3.371606566328e+01
3.371606566294e+01
3.371606566261e+01
3.371606566227e+01
3.371606566194e+01
3.371606566160e+01
3.371606566127e+01
3.371606566094e+01
3.371606566062e+01
3.371606566029e+01
3.371606565997e+01
3.371606565965e+01
3.371606565933e+01
3.371606565901e+01
3.371606565870e+01
3.371606565847e+01
</dep>
<dep tran.v(v_pup) time>
3.860881748835e+01
3.860881748835e+01
3.860881748835e+01
3.860881748835e+01
3.860881748835e+01
3.860881748835e+01
3.860881748835e+01
3.860881748835e+01
3.860881748834e+01
3.860881748833e+01
3.860881748832e+01
3.860881748831e+01
3.860881748830e+01
3.860881748829e+01
3.860881748828e+01
3.860881748827e+01
3.860881748826e+01
3.860881748825e+01
3.860881748824e+01
3.860881748823e+01
3.860881748822e+01
3.860881748821e+01
3.860881748820e+01
3.860881748819e+01
3.860881748818e+01
3.860881748818e+01
3.860881748817e+01
3.860881748816e+01
3.860881748815e+01
3.860881748814e+01
3.860881748813e+01
3.860881748812e+01
3.860881748811e+01
3.860881748810e+01
3.860881748809e+01
3.860881748809e+01
3.860881748808e+01
3.860881748807e+01
3.860881748806e+01
3.860881748805e+01
3.860881748804e+01
3.860881748803e+01
3.860881748803e+01
3.860881748802e+01
3.860881748801e+01
3.860881748800e+01
3.860881748799e+01
3.860881748799e+01
3.860881748798e+01
3.860881748797e+01
3.860881748796e+01
3.860881748795e+01
3.860881748795e+01
3.860881748794e+01
3.860881748793e+01
3.860881748792e+01
3.860881748791e+01
3.860881748791e+01
3.860881748790e+01
3.860881748789e+01
3.860881748788e+01
3.860881748788e+01
3.860881748787e+01
3.860881748786e+01
3.860881748785e+01
3.860881748785e+01
3.860881748784e+01
3.860881748783e+01
3.860881748782e+01
3.860881748782e+01
3.860881748781e+01
3.860881748780e+01
3.860881748780e+01
3.860881748779e+01
3.860881748778e+01
3.860881748778e+01
3.860881748777e+01
3.860881748776e+01
3.860881748775e+01
3.860881748775e+01
3.860881748774e+01
3.860881748773e+01
3.860881748773e+01
3.860881748772e+01
3.860881748771e+01
3.860881748771e+01
3.860881748770e+01
3.860881748770e+01
3.860881748769e+01
3.860881748768e+01
3.860881748768e+01
3.860881748767e+01
3.860881748766e+01
3.860881748766e+01
3.860881748765e+01
3.860881748764e+01
3.860881748764e+01
3.860881748763e+01
3.860881748763e+01
3.860881748762e+01
3.860881748761e+01
3.860881748761e+01
3.860881748760e+01
3.860881748760e+01
3.860881748759e+01
3.860881748758e+01
3.860881748758e+01
3.860881748757e+01
3.860881748757e+01
3.860881748756e+01
3.860881748756e+01
3.860881748755e+01
3.860881748754e+01
3.860881748754e+01
3.860881748753e+01
3.860881748753e+01
3.860881748752e+01
3.860881748752e+01
3.860881748751e+01
3.860881748751e+01
3.860881748750e+01
3.860881748750e+01
3.860881748749e+01
3.860881748749e+01
3.860881748748e+01
3.860881748747e+01
3.860881748747e+01
3.860881748746e+01
3.860881748746e+01
3.860881748745e+01
3.860881748745e+01
3.860881748744e+01
3.860881748744e+01
3.860881748743e+01
3.860881748743e+01
3.860881748742e+01
3.860881748742e+01
3.860881748741e+01
3.860881748741e+01
3.860881748740e+01
3.860881748740e+01
3.860881748740e+01
3.860881748739e+01
3.860881748739e+01
3.860881748738e+01
3.860881748738e+01
3.860881748737e+01
3.860881748737e+01
3.860881748736e+01
3.860881748736e+01
3.860881748735e+01
3.860881748735e+01
3.860881748734e+01
3.860881748734e+01
3.860881748734e+01
3.860881748733e+01
3.860881748733e+01
3.860881748732e+01
3.860881748732e+01
3.860881748731e+01
3.860881748731e+01
3.860881748731e+01
3.860881748730e+01
3.860881748730e+01
3.860881748729e+01
3.860881748729e+01
3.860881748728e+01
3.860881748728e+01
3.860881748728e+01
3.860881748727e+01
3.860881748727e+01
3.860881748726e+01
3.860881748726e+01
3.860881748726e+01
3.860881748725e+01
3.860881748725e+01
3.860881748724e+01
3.860881748724e+01
3.860881748724e+01
3.860881748723e+01
3.860881748723e+01
3.860881748723e+01
3.860881748722e+01
3.860881748722e+01
3.860881748721e+01
3.860881748721e+01
3.860881748721e+01
3.860881748720e+01
3.860881748720e+01
3.860881748720e+01
3.860881748719e+01
3.860881748719e+01
3.860881748719e+01
3.860881748718e+01
3.860881748718e+01
3.860881748717e+01
3.860881748717e+01
3.860881748717e+01
3.860881748716e+01
3.860881748716e+01
3.860881748716e+01
3.860881748715e+01
3.860881748715e+01
3.860881748715e+01
3.860881748714e+01
3.860881748714e+01
3.860881748714e+01
</dep>
